Sample in Buffer,Sample in Window,TRIGGER,u0/wb_dbus_adr[31:0],u0/wb_dbus_cyc,u0/wb_dbus_dat[31:0],u0/wb_dbus_we,u0/wb_dbus_rdt[31:0],u0/o_probuf_0[31:0],u0/o_probuf_1[31:0],u0/o_probuf_2[31:0],u0/o_exe_req,u0/o_autoexec[2:0],u0/o_autoexec_wr,u0/wb_dbus_ack
Radix - UNSIGNED,UNSIGNED,UNSIGNED,HEX,HEX,HEX,HEX,HEX,HEX,HEX,HEX,HEX,HEX,HEX,HEX
0,0,0,fffff880,0,f4000000,0,00000000,88002483,0004a483,00100073,0,0,0,0
1,1,0,fffff880,0,fa000000,0,00000000,88002483,0004a483,00100073,0,0,0,0
2,2,0,fffff880,0,fd000000,0,00000000,88002483,0004a483,00100073,0,0,0,0
3,3,0,fffff880,0,fe800000,0,00000000,88002483,0004a483,00100073,0,0,0,0
4,4,0,fffff880,0,ff400000,0,00000000,88002483,0004a483,00100073,0,0,0,0
5,5,0,fffff880,0,ffa00000,0,00000000,88002483,0004a483,00100073,0,0,0,0
6,6,0,fffff880,0,ffd00000,0,00000000,88002483,0004a483,00100073,0,0,0,0
7,7,0,fffff880,0,ffe80000,0,00000000,88002483,0004a483,00100073,0,0,0,0
8,8,0,fffff880,0,fff40000,0,00000000,88002483,0004a483,00100073,0,0,0,0
9,9,0,fffff880,0,fffa0000,0,00000000,88002483,0004a483,00100073,0,0,0,0
10,10,0,fffff880,0,fffd0000,0,00000000,88002483,0004a483,00100073,0,0,0,0
11,11,0,fffff880,0,fffe8000,0,00000000,88002483,0004a483,00100073,0,0,0,0
12,12,0,fffff880,0,ffff4000,0,00000000,88002483,0004a483,00100073,0,0,0,0
13,13,0,fffff880,0,ffffa000,0,00000000,88002483,0004a483,00100073,0,0,0,0
14,14,0,fffff880,0,ffffd000,0,00000000,88002483,0004a483,00100073,0,0,0,0
15,15,0,fffff880,0,ffffe800,0,00000000,88002483,0004a483,00100073,0,0,0,0
16,16,0,fffff880,0,fffff400,0,00000000,88002483,0004a483,00100073,0,0,0,0
17,17,0,fffff880,0,fffffa00,0,00000000,88002483,0004a483,00100073,0,0,0,0
18,18,0,fffff880,0,fffffd00,0,00000000,88002483,0004a483,00100073,0,0,0,0
19,19,0,fffff880,0,fffffe80,0,00000000,88002483,0004a483,00100073,0,0,0,0
20,20,0,fffff880,0,ffffff40,0,00000000,88002483,0004a483,00100073,0,0,0,0
21,21,0,fffff880,0,ffffffa0,0,00000000,88002483,0004a483,00100073,0,0,0,0
22,22,0,fffff880,0,ffffffd0,0,00000000,88002483,0004a483,00100073,0,0,0,0
23,23,0,fffff880,0,ffffffe8,0,00000000,88002483,0004a483,00100073,0,0,0,0
24,24,0,fffff880,0,fffffff4,0,00000000,88002483,0004a483,00100073,0,0,0,0
25,25,0,fffff880,0,fffffffa,0,00000000,88002483,0004a483,00100073,0,0,0,0
26,26,0,fffff880,0,fffffffd,0,00000000,88002483,0004a483,00100073,0,0,0,0
27,27,0,fffff880,0,fffffffe,0,00000000,88002483,0004a483,00100073,0,0,0,0
28,28,0,fffff880,0,ffffffff,0,00000000,88002483,0004a483,00100073,0,0,0,0
29,29,0,fffff880,0,ffffffff,0,0004a483,88002483,0004a483,00100073,0,0,0,0
30,30,0,fffff880,0,ffffffff,0,0004a483,88002483,0004a483,00100073,0,0,0,0
31,31,0,fffff880,0,ffffffff,0,00000000,88002483,0004a483,00100073,0,0,0,0
32,32,0,fffff880,0,ffffffff,0,00000000,88002483,0004a483,00100073,0,0,0,0
33,33,0,7ffffc40,0,7fffffff,0,00000000,88002483,0004a483,00100073,0,0,0,0
34,34,0,3ffffe20,0,3fffffff,0,00040001,88002483,0004a483,00100073,0,0,0,0
35,35,0,1fffff10,0,1fffffff,0,00000000,88002483,0004a483,00100073,0,0,0,0
36,36,0,0fffff88,0,0fffffff,0,00000000,88002483,0004a483,00100073,0,0,0,0
37,37,0,07ffffc4,0,07ffffff,0,00000000,88002483,0004a483,00100073,0,0,0,0
38,38,0,03ffffe0,0,03ffffff,0,00000000,88002483,0004a483,00100073,0,0,0,0
39,39,0,01fffff0,0,01ffffff,0,00000000,88002483,0004a483,00100073,0,0,0,0
40,40,0,00fffff8,0,00ffffff,0,00000000,88002483,0004a483,00100073,0,0,0,0
41,41,0,007ffffc,0,007fffff,0,00000000,88002483,0004a483,00100073,0,0,0,0
42,42,0,003ffffc,0,003fffff,0,00000000,88002483,0004a483,00100073,0,0,0,0
43,43,0,001ffffc,0,001fffff,0,00000000,88002483,0004a483,00100073,0,0,0,0
44,44,0,000ffffc,0,000fffff,0,00000000,88002483,0004a483,00100073,0,0,0,0
45,45,0,0007fffc,0,0007ffff,0,00000000,88002483,0004a483,00100073,0,0,0,0
46,46,0,0003fffc,0,0003ffff,0,00000000,88002483,0004a483,00100073,0,0,0,0
47,47,0,0001fffc,0,0001ffff,0,00000000,88002483,0004a483,00100073,0,0,0,0
48,48,0,0000fffc,0,0000ffff,0,00000000,88002483,0004a483,00100073,0,0,0,0
49,49,0,00007ffc,0,00007fff,0,00000000,88002483,0004a483,00100073,0,0,0,0
50,50,0,00003ffc,0,00003fff,0,00000000,88002483,0004a483,00100073,0,0,0,0
51,51,0,00001ffc,0,00001fff,0,00000000,88002483,0004a483,00100073,0,0,0,0
52,52,0,00000ffc,0,00000fff,0,00000000,88002483,0004a483,00100073,0,0,0,0
53,53,0,000007fc,0,000007ff,0,00000000,88002483,0004a483,00100073,0,0,0,0
54,54,0,000003fc,0,000003ff,0,00000000,88002483,0004a483,00100073,0,0,0,0
55,55,0,000001fc,0,000001ff,0,00000000,88002483,0004a483,00100073,0,0,0,0
56,56,0,000000fc,0,000000ff,0,00000000,88002483,0004a483,00100073,0,0,0,0
57,57,0,0000007c,0,0000007f,0,00000000,88002483,0004a483,00100073,0,0,0,0
58,58,0,0000003c,0,0000003f,0,00000000,88002483,0004a483,00100073,0,0,0,0
59,59,0,0000001c,0,0000001f,0,00000000,88002483,0004a483,00100073,0,0,0,0
60,60,0,0000000c,0,0000000f,0,00000000,88002483,0004a483,00100073,0,0,0,0
61,61,0,00000004,0,00000007,0,00000000,88002483,0004a483,00100073,0,0,0,0
62,62,0,00000000,0,00000003,0,00000000,88002483,0004a483,00100073,0,0,0,0
63,63,0,80000000,0,00000001,0,00000000,88002483,0004a483,00100073,0,0,0,0
64,64,1,40000000,1,00000000,0,00000063,88002483,0004a483,00100073,0,0,0,0
65,65,0,40000000,1,00000000,0,00000063,88002483,0004a483,00100073,0,0,0,1
66,66,0,40000000,0,00000063,0,00000063,88002483,0004a483,00100073,0,0,0,0
67,67,0,40000000,0,00000031,0,00000063,88002483,0004a483,00100073,0,0,0,0
68,68,0,40000000,0,00000018,0,00000063,88002483,0004a483,00100073,0,0,0,0
69,69,0,40000000,0,0000000c,0,00000063,88002483,0004a483,00100073,0,0,0,0
70,70,0,40000000,0,00000006,0,00000063,88002483,0004a483,00100073,0,0,0,0
71,71,0,40000000,0,00000003,0,00000063,88002483,0004a483,00100073,0,0,0,0
72,72,0,40000000,0,00000001,0,00000063,88002483,0004a483,00100073,0,0,0,0
73,73,0,40000000,0,00000000,0,00000063,88002483,0004a483,00100073,0,0,0,0
74,74,0,40000000,0,00000000,0,00000063,88002483,0004a483,00100073,0,0,0,0
75,75,0,40000000,0,00000000,0,00000063,88002483,0004a483,00100073,0,0,0,0
76,76,0,40000000,0,00000000,0,00000063,88002483,0004a483,00100073,0,0,0,0
77,77,0,40000000,0,00000000,0,00000063,88002483,0004a483,00100073,0,0,0,0
78,78,0,40000000,0,00000000,0,00000063,88002483,0004a483,00100073,0,0,0,0
79,79,0,40000000,0,00000000,0,00000063,88002483,0004a483,00100073,0,0,0,0
80,80,0,40000000,0,00000000,0,00000063,88002483,0004a483,00100073,0,0,0,0
81,81,0,40000000,0,00000000,0,00000063,88002483,0004a483,00100073,0,0,0,0
82,82,0,40000000,0,00000000,0,00000063,88002483,0004a483,00100073,0,0,0,0
83,83,0,40000000,0,00000000,0,00000063,88002483,0004a483,00100073,0,0,0,0
84,84,0,40000000,0,00000000,0,00000063,88002483,0004a483,00100073,0,0,0,0
85,85,0,40000000,0,00000000,0,00000063,88002483,0004a483,00100073,0,0,0,0
86,86,0,40000000,0,00000000,0,00000063,88002483,0004a483,00100073,0,0,0,0
87,87,0,40000000,0,00000000,0,00000063,88002483,0004a483,00100073,0,0,0,0
88,88,0,40000000,0,00000000,0,00000063,88002483,0004a483,00100073,0,0,0,0
89,89,0,40000000,0,00000000,0,00000063,88002483,0004a483,00100073,0,0,0,0
90,90,0,40000000,0,00000000,0,00000063,88002483,0004a483,00100073,0,0,0,0
91,91,0,40000000,0,00000000,0,00000063,88002483,0004a483,00100073,0,0,0,0
92,92,0,40000000,0,00000000,0,00000063,88002483,0004a483,00100073,0,0,0,0
93,93,0,40000000,0,00000000,0,00000063,88002483,0004a483,00100073,0,0,0,0
94,94,0,40000000,0,00000000,0,00000063,88002483,0004a483,00100073,0,0,0,0
95,95,0,40000000,0,00000000,0,00000063,88002483,0004a483,00100073,0,0,0,0
96,96,0,40000000,0,00000000,0,00000063,88002483,0004a483,00100073,0,0,0,0
97,97,0,40000000,0,00000000,0,00000063,88002483,0004a483,00100073,0,0,0,0
98,98,0,40000000,0,00000000,0,00000063,88002483,0004a483,00100073,0,0,0,0
99,99,0,40000000,0,00000000,0,00100073,88002483,0004a483,00100073,0,0,0,0
100,100,0,40000000,0,00000000,1,00100073,88002483,0004a483,00100073,0,0,0,0
101,101,0,40000000,0,0000003f,1,00000063,88002483,0004a483,00100073,0,0,0,0
102,102,0,40000000,0,0000003e,1,00000063,88002483,0004a483,00100073,0,0,0,0
103,103,0,40000000,0,0000003d,1,00000063,88002483,0004a483,00100073,0,0,0,0
104,104,0,40000000,0,0000003c,1,00000063,88002483,0004a483,00100073,0,0,0,0
105,105,0,40000000,0,0000003b,1,00000063,88002483,0004a483,00100073,0,0,0,0
106,106,0,40000000,0,0000003a,1,00000063,88002483,0004a483,00100073,0,0,0,0
107,107,0,40000000,0,00000039,1,00000063,88002483,0004a483,00100073,0,0,0,0
108,108,0,40000000,0,00000038,1,00000063,88002483,0004a483,00100073,0,0,0,0
109,109,0,40000000,0,00000037,1,00000063,88002483,0004a483,00100073,0,0,0,0
110,110,0,40000000,0,00000036,1,00000063,88002483,0004a483,00100073,0,0,0,0
111,111,0,40000000,0,00000035,1,00000063,88002483,0004a483,00100073,0,0,0,0
112,112,0,40000000,0,00000034,1,00000063,88002483,0004a483,00100073,0,0,0,0
113,113,0,40000000,0,00000033,1,00000063,88002483,0004a483,00100073,0,0,0,0
114,114,0,40000000,0,00000032,1,00000063,88002483,0004a483,00100073,0,0,0,0
115,115,0,40000000,0,00000031,1,00000063,88002483,0004a483,00100073,0,0,0,0
116,116,0,40000000,0,00000030,1,00000063,88002483,0004a483,00100073,0,0,0,0
117,117,0,40000000,0,0000002f,1,00000063,88002483,0004a483,00100073,0,0,0,0
118,118,0,40000000,0,0000002e,1,00000063,88002483,0004a483,00100073,0,0,0,0
119,119,0,40000000,0,0000002d,1,00000063,88002483,0004a483,00100073,0,0,0,0
120,120,0,40000000,0,0000002c,1,00000063,88002483,0004a483,00100073,0,0,0,0
121,121,0,40000000,0,0000002b,1,00000063,88002483,0004a483,00100073,0,0,0,0
122,122,0,40000000,0,0000002a,1,00000063,88002483,0004a483,00100073,0,0,0,0
123,123,0,40000000,0,00000029,1,00000063,88002483,0004a483,00100073,0,0,0,0
124,124,0,40000000,0,00000028,1,00000063,88002483,0004a483,00100073,0,0,0,0
125,125,0,40000000,0,00000027,1,00000063,88002483,0004a483,00100073,0,0,0,0
126,126,0,40000000,0,00000026,1,00000063,88002483,0004a483,00100073,0,0,0,0
127,127,0,40000000,0,00000025,1,00000063,88002483,0004a483,00100073,0,0,0,0
128,128,0,40000000,0,00000024,1,00000063,88002483,0004a483,00100073,0,0,0,0
129,129,0,40000000,0,00000023,1,00000063,88002483,0004a483,00100073,0,0,0,0
130,130,0,40000000,0,00000022,1,00000063,88002483,0004a483,00100073,0,0,0,0
131,131,0,40000000,0,00000021,1,00000063,88002483,0004a483,00100073,0,0,0,0
132,132,0,40000000,0,00000020,1,00000063,88002483,0004a483,00100073,0,0,0,0
133,133,0,40000000,0,0000001f,1,00000063,88002483,0004a483,00100073,0,0,0,0
134,134,0,40000000,0,0000001e,1,00000063,88002483,0004a483,00100073,0,0,0,0
135,135,0,40000000,0,0000001d,1,7b241073,88002483,0004a483,00100073,0,0,0,0
136,136,0,40000000,0,0000001c,1,7b241073,88002483,0004a483,00100073,0,0,0,0
137,137,0,40000000,0,0000001b,1,00000063,88002483,0004a483,00100073,0,0,0,0
138,138,0,40000000,0,0000001a,1,00000063,88002483,0004a483,00100073,0,0,0,0
139,139,0,40000000,0,00000019,1,00000063,88002483,0004a483,00100073,0,0,0,0
140,140,0,40000000,0,00000018,1,00000063,88002483,0004a483,00100073,0,0,0,0
141,141,0,40000000,0,00000017,1,00000063,88002483,0004a483,00100073,0,0,0,0
142,142,0,40000000,0,00000016,1,00000063,88002483,0004a483,00100073,0,0,0,0
143,143,0,40000000,0,00000015,1,00000063,88002483,0004a483,00100073,0,0,0,0
144,144,0,40000000,0,00000014,1,00000063,88002483,0004a483,00100073,0,0,0,0
145,145,0,40000000,0,80000013,1,00000063,88002483,0004a483,00100073,0,0,0,0
146,146,0,40000000,0,40000012,1,00000063,88002483,0004a483,00100073,0,0,0,0
147,147,0,40000000,0,20000011,1,00000063,88002483,0004a483,00100073,0,0,0,0
148,148,0,40000000,0,10000010,1,00000063,88002483,0004a483,00100073,0,0,0,0
149,149,0,40000000,0,0800000f,1,00000063,88002483,0004a483,00100073,0,0,0,0
150,150,0,40000000,0,0400000e,1,00000063,88002483,0004a483,00100073,0,0,0,0
151,151,0,40000000,0,0200000d,1,00000063,88002483,0004a483,00100073,0,0,0,0
152,152,0,40000000,0,0100000c,1,00000063,88002483,0004a483,00100073,0,0,0,0
153,153,0,40000000,0,0080000b,1,00000063,88002483,0004a483,00100073,0,0,0,0
154,154,0,40000000,0,8040000a,1,00000063,88002483,0004a483,00100073,0,0,0,0
155,155,0,40000000,0,40200009,1,00000063,88002483,0004a483,00100073,0,0,0,0
156,156,0,40000000,0,20100008,1,00000063,88002483,0004a483,00100073,0,0,0,0
157,157,0,40000000,0,10080007,1,00000063,88002483,0004a483,00100073,0,0,0,0
158,158,0,40000000,0,08040006,1,00000063,88002483,0004a483,00100073,0,0,0,0
159,159,0,40000000,0,04020005,1,00000063,88002483,0004a483,00100073,0,0,0,0
160,160,0,40000000,0,02010004,1,00000063,88002483,0004a483,00100073,0,0,0,0
161,161,0,40000000,0,01008003,1,00000063,88002483,0004a483,00100073,0,0,0,0
162,162,0,40000000,0,00804002,1,00000063,88002483,0004a483,00100073,0,0,0,0
163,163,0,40000000,0,00402001,1,00000063,88002483,0004a483,00100073,0,0,0,0
164,164,0,40000000,0,00201000,1,00000063,88002483,0004a483,00100073,0,0,0,0
165,165,0,40000000,0,0010083f,1,00000063,88002483,0004a483,00100073,0,0,0,0
166,166,0,40000000,0,0008043e,1,00000063,88002483,0004a483,00100073,0,0,0,0
167,167,0,40000000,0,0004023d,1,00000063,88002483,0004a483,00100073,0,0,0,0
168,168,0,40000000,0,0002013c,1,00000063,88002483,0004a483,00100073,0,0,0,0
169,169,0,40000000,0,800100bb,1,00000063,88002483,0004a483,00100073,0,0,0,0
170,170,0,40000000,0,4000807a,1,00000063,88002483,0004a483,00100073,0,0,0,0
171,171,0,40000000,0,20004039,1,8c000023,88002483,0004a483,00100073,0,0,0,0
172,172,0,40000000,0,10002038,1,8c000023,88002483,0004a483,00100073,0,0,0,0
173,173,0,40000000,0,10002038,1,00000063,88002483,0004a483,00100073,0,0,0,0
174,174,0,40000000,0,10002038,1,00000063,88002483,0004a483,00100073,0,0,0,0
175,175,0,20000000,0,0800101c,1,00040001,88002483,0004a483,00100073,0,0,0,0
176,176,0,10000000,0,0400080e,1,00000063,88002483,0004a483,00100073,0,0,0,0
177,177,0,08000000,0,02000407,1,00000063,88002483,0004a483,00100073,0,0,0,0
178,178,0,04000000,0,01000203,1,00000063,88002483,0004a483,00100073,0,0,0,0
179,179,0,02000000,0,00800101,1,00000063,88002483,0004a483,00100073,0,0,0,0
180,180,0,01000000,0,00400080,1,00000063,88002483,0004a483,00100073,0,0,0,0
181,181,0,80800000,0,00200040,1,00000000,88002483,0004a483,00100073,0,0,0,0
182,182,0,c0400000,0,00100020,1,00000000,88002483,0004a483,00100073,0,0,0,0
183,183,0,60200000,0,00080010,1,00000063,88002483,0004a483,00100073,0,0,0,0
184,184,0,30100000,0,00040008,1,00040001,88002483,0004a483,00100073,0,0,0,0
185,185,0,18080000,0,00020004,1,00000063,88002483,0004a483,00100073,0,0,0,0
186,186,0,8c040000,0,00010002,1,00000000,88002483,0004a483,00100073,0,0,0,0
187,187,0,c6020000,0,00008001,1,00000000,88002483,0004a483,00100073,0,0,0,0
188,188,0,e3010000,0,00004000,1,00000063,88002483,0004a483,00100073,0,0,0,0
189,189,0,f1808000,0,00002000,1,00000063,88002483,0004a483,00100073,0,0,0,0
190,190,0,f8c04000,0,00001000,1,00000063,88002483,0004a483,00100073,0,0,0,0
191,191,0,fc602000,0,00000800,1,00000063,88002483,0004a483,00100073,0,0,0,0
192,192,0,fe301000,0,00000400,1,00000063,88002483,0004a483,00100073,0,0,0,0
193,193,0,ff180800,0,00000200,1,00000000,88002483,0004a483,00100073,0,0,0,0
194,194,0,ff8c0400,0,00000100,1,00000000,88002483,0004a483,00100073,0,0,0,0
195,195,0,ffc60200,0,00000080,1,00000000,88002483,0004a483,00100073,0,0,0,0
196,196,0,ffe30100,0,00000040,1,00000000,88002483,0004a483,00100073,0,0,0,0
197,197,0,fff18080,0,00000020,1,00000000,88002483,0004a483,00100073,0,0,0,0
198,198,0,fff8c040,0,00000010,1,00000000,88002483,0004a483,00100073,0,0,0,0
199,199,0,fffc6020,0,00000008,1,00000000,88002483,0004a483,00100073,0,0,0,0
200,200,0,fffe3010,0,00000004,1,00000000,88002483,0004a483,00100073,0,0,0,0
201,201,0,ffff1808,0,00000002,1,00000000,88002483,0004a483,00100073,0,0,0,0
202,202,0,ffff8c04,0,00000001,1,00000000,88002483,0004a483,00100073,0,0,0,0
203,203,0,ffffc600,0,00000000,1,00000000,88002483,0004a483,00100073,0,0,0,0
204,204,0,ffffe300,0,00000000,1,00000000,88002483,0004a483,00100073,0,0,0,0
205,205,0,fffff180,0,00000000,1,00000000,88002483,0004a483,00100073,0,0,0,0
206,206,0,fffff8c0,1,00000000,1,00000000,88002483,0004a483,00100073,0,0,0,0
207,207,0,fffff8c0,1,00000000,1,8c000023,88002483,0004a483,00100073,0,0,0,1
208,208,0,fffff8c0,0,8c000023,1,8c000023,88002483,0004a483,00100073,0,0,0,0
209,209,0,fffff8c0,0,46000011,1,00000000,88002483,0004a483,00100073,0,0,0,0
210,210,0,fffff8c0,0,23000008,1,00000000,88002483,0004a483,00100073,0,0,0,0
211,211,0,fffff8c0,0,11800004,1,00000000,88002483,0004a483,00100073,0,0,0,0
212,212,0,fffff8c0,0,08c00002,1,00000000,88002483,0004a483,00100073,0,0,0,0
213,213,0,fffff8c0,0,04600001,1,00000000,88002483,0004a483,00100073,0,0,0,0
214,214,0,fffff8c0,0,02300000,1,00000000,88002483,0004a483,00100073,0,0,0,0
215,215,0,fffff8c0,0,01180000,1,00000000,88002483,0004a483,00100073,0,0,0,0
216,216,0,fffff8c0,0,008c0000,1,00000000,88002483,0004a483,00100073,0,0,0,0
217,217,0,fffff8c0,0,00460000,1,00000000,88002483,0004a483,00100073,0,0,0,0
218,218,0,fffff8c0,0,00230000,1,00000000,88002483,0004a483,00100073,0,0,0,0
219,219,0,fffff8c0,0,00118000,1,00000000,88002483,0004a483,00100073,0,0,0,0
220,220,0,fffff8c0,0,0008c000,1,00000000,88002483,0004a483,00100073,0,0,0,0
221,221,0,fffff8c0,0,00046000,1,00000000,88002483,0004a483,00100073,0,0,0,0
222,222,0,fffff8c0,0,00023000,1,00000000,88002483,0004a483,00100073,0,0,0,0
223,223,0,fffff8c0,0,00011800,1,00000000,88002483,0004a483,00100073,0,0,0,0
224,224,0,fffff8c0,0,00008c00,1,00000000,88002483,0004a483,00100073,0,0,0,0
225,225,0,fffff8c0,0,00004600,1,00000000,88002483,0004a483,00100073,0,0,0,0
226,226,0,fffff8c0,0,00002300,1,00000000,88002483,0004a483,00100073,0,0,0,0
227,227,0,fffff8c0,0,00001180,1,00000000,88002483,0004a483,00100073,0,0,0,0
228,228,0,fffff8c0,0,000008c0,1,00000000,88002483,0004a483,00100073,0,0,0,0
229,229,0,fffff8c0,0,00000460,1,00000000,88002483,0004a483,00100073,0,0,0,0
230,230,0,fffff8c0,0,00000230,1,00000000,88002483,0004a483,00100073,0,0,0,0
231,231,0,fffff8c0,0,00000118,1,00000000,88002483,0004a483,00100073,0,0,0,0
232,232,0,fffff8c0,0,0000008c,1,00000000,88002483,0004a483,00100073,0,0,0,0
233,233,0,fffff8c0,0,00000046,1,00000000,88002483,0004a483,00100073,0,0,0,0
234,234,0,fffff8c0,0,00000023,1,00000000,88002483,0004a483,00100073,0,0,0,0
235,235,0,fffff8c0,0,00000011,1,00000000,88002483,0004a483,00100073,0,0,0,0
236,236,0,fffff8c0,0,00000008,1,00000000,88002483,0004a483,00100073,0,0,0,0
237,237,0,fffff8c0,0,00000004,1,00000000,88002483,0004a483,00100073,0,0,0,0
238,238,0,fffff8c0,0,00000002,1,00000000,88002483,0004a483,00100073,0,0,0,0
239,239,0,fffff8c0,0,00000001,1,00000000,88002483,0004a483,00100073,0,0,0,0
240,240,0,fffff8c0,0,00000000,1,00000000,88002483,0004a483,00100073,0,0,0,0
241,241,0,fffff8c0,0,00000000,1,8c204403,88002483,0004a483,00100073,0,0,0,0
242,242,0,fffff8c0,0,00000000,0,8c204403,88002483,0004a483,00100073,0,0,0,0
243,243,0,fffff8c0,0,00000000,0,00000000,88002483,0004a483,00100073,0,0,0,0
244,244,0,fffff8c0,0,00000000,0,00000000,88002483,0004a483,00100073,0,0,0,0
245,245,0,7ffffc60,0,00000000,0,00000000,88002483,0004a483,00100073,0,0,0,0
246,246,0,bffffe30,0,80000000,0,5b4103e0,88002483,0004a483,00100073,0,0,0,0
247,247,0,5fffff18,0,40000000,0,00000000,88002483,0004a483,00100073,0,0,0,0
248,248,0,2fffff8c,0,20000000,0,00040001,88002483,0004a483,00100073,0,0,0,0
249,249,0,17ffffc4,0,10000000,0,00000000,88002483,0004a483,00100073,0,0,0,0
250,250,0,0bffffe0,0,08000000,0,00000000,88002483,0004a483,00100073,0,0,0,0
251,251,0,85fffff0,0,84000000,0,00000000,88002483,0004a483,00100073,0,0,0,0
252,252,0,c2fffff8,0,c2000000,0,00000000,88002483,0004a483,00100073,0,0,0,0
253,253,0,617ffffc,0,61000000,0,00000000,88002483,0004a483,00100073,0,0,0,0
254,254,0,30bffffc,0,30800000,0,00040001,88002483,0004a483,00100073,0,0,0,0
255,255,0,185ffffc,0,18400000,0,00000000,88002483,0004a483,00100073,0,0,0,0
256,256,0,8c2ffffc,0,8c200000,0,00000000,88002483,0004a483,00100073,0,0,0,0
257,257,0,c617fffc,0,c6100000,0,000000ff,88002483,0004a483,00100073,0,0,0,0
258,258,0,e30bfffc,0,e3080000,0,00000000,88002483,0004a483,00100073,0,0,0,0
259,259,0,f185fffc,0,f1840000,0,00000000,88002483,0004a483,00100073,0,0,0,0
260,260,0,f8c2fffc,0,f8c20000,0,00000000,88002483,0004a483,00100073,0,0,0,0
